
T3ED0 000:146 SEGGER J-Link V6.10i Log File (0000ms, 0036ms total)
T3ED0 000:146 DLL Compiled: Oct 25 2016 19:31:51 (0000ms, 0036ms total)
T3ED0 000:146 Logging started @ 2021-06-01 17:26 (0000ms, 0036ms total)
T3ED0 000:146 JLINK_SetWarnOutHandler(...) (0000ms, 0036ms total)
T3ED0 000:146 JLINK_OpenEx(...)
Firmware: J-Link V9 compiled Apr 20 2018 16:47:26
Hardware: V9.40
S/N: 59420392
Feature(s): RDI, GDB, FlashDL, FlashBP, JFlashWEBSRV Webserver running on local port 19080 (0026ms, 0062ms total)
T3ED0 000:146   returns O.K. (0026ms, 0062ms total)
T3ED0 000:172 JLINK_SetErrorOutHandler(...) (0000ms, 0062ms total)
T3ED0 000:172 JLINK_ExecCommand("ProjectFile = "E:\FR801xH_prj\Alexa\Alexa_mesh_PB-remote\Alexa_PB_Remote_20210601\examples\none_evm\ble_mesh_PB_Remote\keil\JLinkSettings.ini"", ...).   returns 0x00 (0163ms, 0225ms total)
T3ED0 000:342 JLINK_ExecCommand("Device = Cortex-M3", ...). Device "CORTEX-M3" selected.  returns 0x00 (0006ms, 0231ms total)
T3ED0 000:348 JLINK_ExecCommand("DisableConnectionTimeout", ...).   returns 0x01 (0001ms, 0232ms total)
T3ED0 000:349 JLINK_GetHardwareVersion()  returns 0x16F30 (0000ms, 0232ms total)
T3ED0 000:349 JLINK_GetDLLVersion()  returns 61009 (0000ms, 0232ms total)
T3ED0 000:349 JLINK_GetFirmwareString(...) (0000ms, 0232ms total)
T3ED0 000:367 JLINK_GetDLLVersion()  returns 61009 (0000ms, 0232ms total)
T3ED0 000:367 JLINK_GetCompileDateTime() (0000ms, 0232ms total)
T3ED0 000:375 JLINK_GetFirmwareString(...) (0000ms, 0232ms total)
T3ED0 000:380 JLINK_GetHardwareVersion()  returns 0x16F30 (0000ms, 0232ms total)
T3ED0 000:403 JLINK_TIF_Select(JLINKARM_TIF_SWD)  returns 0x00 (0002ms, 0234ms total)
T3ED0 000:405 JLINK_SetSpeed(2000) (0001ms, 0235ms total)
T3ED0 000:406 JLINK_GetId() >0x108 TIF>Found SWD-DP with ID 0x2BA01477 >0x0D TIF> >0x28 TIF> >0x0D TIF> >0x28 TIF> >0x0D TIF> >0x28 TIF> >0x0D TIF> >0x28 TIF> >0x0D TIF> >0x21 TIF> >0x0D TIF> >0x28 TIF> >0x0D TIF> >0x28 TIF> >0x0D TIF> >0x21 TIF> >0x0D TIF> >0x21 TIF> >0x0D TIF> >0x21 TIF>AP-IDR: 0x24770011, Type: AHB-AP >0x0D TIF> >0x28 TIF> >0x0D TIF> >0x28 TIF> >0x0D TIF> >0x28 TIF> >0x0D TIF> >0x21 TIF> >0x0D TIF> >0x21 TIF> >0x0D TIF> >0x28 TIF> >0x0D TIF> >0x21 TIF> >0x0D TIF> >0x21 TIF>
Found Cortex-M3 r2p1, Little endian. -- CPU_ReadMem(4 bytes @ 0xE000EDF0) -- CPU_WriteMem(4 bytes @ 0xE000EDF0) -- CPU_ReadMem(4 bytes @ 0xE0002000)FPUnit: 14 code (BP) slots and 2 literal slots -- CPU_ReadMem(4 bytes @ 0xE000EDFC) -- CPU_WriteMem(4 bytes @ 0xE000EDFC) -- CPU_ReadMem(4 bytes @ 0xE0001000) -- CPU_WriteMem(4 bytes @ 0xE0001000) -- CPU_ReadMem(4 bytes @ 0xE000ED88) -- CPU_WriteMem(4 bytes @ 0xE000ED88) -- CPU_ReadMem(4 bytes @ 0xE000ED88) -- CPU_WriteMem(4 bytes @ 0xE000ED88)
CoreSight components:ROMTbl 0 @ E00FF000 -- CPU_ReadMem(16 bytes @ 0xE00FF000) -- CPU_ReadMem(16 bytes @ 0xE000EFF0) -- CPU_ReadMem(16 bytes @ 0xE000EFE0)ROMTbl 0 [0]: FFF0F000, CID: B105E00D, PID: 000BB000 SCS -- CPU_ReadMem(16 bytes @ 0xE0001FF0) -- CPU_ReadMem(16 bytes @ 0xE0001FE0)ROMTbl 0 [1]: FFF02000, CID: B105E00D, PID: 003BB002 DWT -- CPU_ReadMem(16 bytes @ 0xE0002FF0) -- CPU_ReadMem(16 bytes @ 0xE0002FE0)ROMTbl 0 [2]: FFF03000, CID: B105E00D, PID: 002BB003 FPB
 -- CPU_ReadMem(16 bytes @ 0xE0000FF0) -- CPU_ReadMem(16 bytes @ 0xE0000FE0)ROMTbl 0 [3]: FFF01000, CID: B105E00D, PID: 003BB001 ITM -- CPU_ReadMem(16 bytes @ 0xE00FF010) -- CPU_ReadMem(16 bytes @ 0xE0040FF0) -- CPU_ReadMem(16 bytes @ 0xE0040FE0)ROMTbl 0 [4]: FFF41000, CID: B105900D, PID: 003BB923 TPIU-Lite >0x0D TIF> >0x21 TIF>  returns 0x2BA01477 (0100ms, 0335ms total)
T3ED0 000:506 JLINK_GetDLLVersion()  returns 61009 (0000ms, 0335ms total)
T3ED0 000:506 JLINK_CORE_GetFound()  returns 0x30000FF (0000ms, 0335ms total)
T3ED0 000:506 JLINK_GetDebugInfo(0x100) -- Value=0xE00FF000  returns 0x00 (0000ms, 0335ms total)
T3ED0 000:510 JLINK_GetDebugInfo(0x100) -- Value=0xE00FF000  returns 0x00 (0000ms, 0335ms total)
T3ED0 000:510 JLINK_GetDebugInfo(0x101) -- Value=0x00000000  returns 0x00 (0000ms, 0335ms total)
T3ED0 000:510 JLINK_ReadMem (0xE0041FF0, 0x0010 Bytes, ...) -- CPU is running -- CPU_ReadMem(16 bytes @ 0xE0041FF0) - Data: 00 00 00 00 00 00 00 00 00 00 00 00 00 00 00 00  returns 0x00 (0001ms, 0336ms total)
T3ED0 000:511 JLINK_GetDebugInfo(0x102) -- Value=0x00000000  returns 0x00 (0000ms, 0336ms total)
T3ED0 000:511 JLINK_GetDebugInfo(0x103) -- Value=0xE0040000  returns 0x00 (0000ms, 0336ms total)
T3ED0 000:511 JLINK_GetDebugInfo(0x104) -- Value=0xE0000000  returns 0x00 (0000ms, 0336ms total)
T3ED0 000:511 JLINK_GetDebugInfo(0x105) -- Value=0xE0001000  returns 0x00 (0000ms, 0336ms total)
T3ED0 000:511 JLINK_GetDebugInfo(0x106) -- Value=0xE0002000  returns 0x00 (0000ms, 0336ms total)
T3ED0 000:511 JLINK_GetDebugInfo(0x107) -- Value=0xE000E000  returns 0x00 (0000ms, 0336ms total)
T3ED0 000:511 JLINK_GetDebugInfo(0x10C) -- Value=0xE000EDF0  returns 0x00 (0001ms, 0337ms total)
T3ED0 000:512 JLINK_ReadMemU32(0xE000ED00, 0x0001 Items, ...) -- CPU is running -- CPU_ReadMem(4 bytes @ 0xE000ED00) - Data: 31 C2 2F 41  returns 0x01 (0000ms, 0337ms total)
T3ED0 000:512 JLINK_SetResetType(JLINKARM_RESET_TYPE_NORMAL)  returns JLINKARM_RESET_TYPE_NORMAL (0000ms, 0337ms total)
T3ED0 000:512 JLINK_Reset() -- CPU is running -- CPU_WriteMem(4 bytes @ 0xE000EDF0) -- CPU is running -- CPU_WriteMem(4 bytes @ 0xE000EDFC) >0x35 TIF> -- CPU is running -- CPU_WriteMem(4 bytes @ 0xE000ED0C) -- CPU is running -- CPU_ReadMem(4 bytes @ 0xE000EDF0) -- CPU is running -- CPU_ReadMem(4 bytes @ 0xE000EDF0) -- CPU is running -- CPU_WriteMem(4 bytes @ 0xE000EDF0) -- CPU is running -- CPU_WriteMem(4 bytes @ 0xE000EDFC) -- CPU is running -- CPU_ReadMem(4 bytes @ 0xE000EDF0)
 -- CPU_WriteMem(4 bytes @ 0xE0002000) -- CPU_ReadMem(4 bytes @ 0xE000EDFC) -- CPU_ReadMem(4 bytes @ 0xE0001000) (0022ms, 0359ms total)
T3ED0 000:534 JLINK_Halt()  returns 0x00 (0000ms, 0359ms total)
T3ED0 000:534 JLINK_IsHalted()  returns TRUE (0000ms, 0359ms total)
T3ED0 000:534 JLINK_ReadMemU32(0xE000EDF0, 0x0001 Items, ...) -- CPU_ReadMem(4 bytes @ 0xE000EDF0) - Data: 03 00 03 00  returns 0x01 (0001ms, 0360ms total)
T3ED0 000:535 JLINK_WriteU32(0xE000EDF0, 0xA05F0003) -- CPU_WriteMem(4 bytes @ 0xE000EDF0)  returns 0x00 (0001ms, 0361ms total)
T3ED0 000:536 JLINK_WriteU32(0xE000EDFC, 0x01000000) -- CPU_WriteMem(4 bytes @ 0xE000EDFC)  returns 0x00 (0001ms, 0362ms total)
T3ED0 000:562 JLINK_GetHWStatus(...)  returns 0x00 (0000ms, 0362ms total)
T3ED0 000:582 JLINK_GetNumBPUnits(Type = 0xFFFFFF00)  returns 0x0E (0000ms, 0362ms total)
T3ED0 000:582 JLINK_GetNumBPUnits(Type = 0xF0)  returns 0x2000 (0000ms, 0362ms total)
T3ED0 000:582 JLINK_GetNumWPUnits()  returns 0x04 (0000ms, 0362ms total)
T3ED0 000:598 JLINK_GetSpeed()  returns 0x7D0 (0000ms, 0362ms total)
T3ED0 000:611 JLINK_ReadMemU32(0xE000E004, 0x0001 Items, ...) -- CPU_ReadMem(4 bytes @ 0xE000E004) - Data: 00 00 00 00  returns 0x01 (0001ms, 0363ms total)
T3ED0 000:612 JLINK_ReadMemU32(0xE000E004, 0x0001 Items, ...) -- CPU_ReadMem(4 bytes @ 0xE000E004) - Data: 00 00 00 00  returns 0x01 (0001ms, 0364ms total)
T3ED0 000:613 JLINK_WriteMem(0xE0001000, 0x001C Bytes, ...) - Data: 01 00 00 00 00 00 00 00 00 00 00 00 00 00 00 00 ... -- CPU_WriteMem(28 bytes @ 0xE0001000)  returns 0x1C (0001ms, 0365ms total)
T3ED0 000:614 JLINK_ReadMem (0xE0001000, 0x001C Bytes, ...) -- CPU_ReadMem(28 bytes @ 0xE0001000) - Data: 01 00 00 40 00 00 00 00 00 00 00 00 00 00 00 00 ...  returns 0x00 (0001ms, 0366ms total)
T3ED0 000:615 JLINK_Halt()  returns 0x00 (0000ms, 0366ms total)
T3ED0 000:615 JLINK_IsHalted()  returns TRUE (0000ms, 0366ms total)
T3ED0 000:630 JLINK_WriteMem(0x20000000, 0x0EA0 Bytes, ...) - Data: 00 BE 0A E0 0D 78 2D 06 68 40 08 24 40 00 00 D3 ... -- CPU_WriteMem(3744 bytes @ 0x20000000)  returns 0xEA0 (0027ms, 0393ms total)
T3ED0 000:657 JLINK_WriteReg(R0, 0x01000000)  returns 0x00 (0000ms, 0393ms total)
T3ED0 000:657 JLINK_WriteReg(R1, 0x00B71B00)  returns 0x00 (0000ms, 0393ms total)
T3ED0 000:657 JLINK_WriteReg(R2, 0x00000001)  returns 0x00 (0000ms, 0393ms total)
T3ED0 000:657 JLINK_WriteReg(R3, 0x00000000)  returns 0x00 (0000ms, 0393ms total)
T3ED0 000:657 JLINK_WriteReg(R4, 0x00000000)  returns 0x00 (0000ms, 0393ms total)
T3ED0 000:657 JLINK_WriteReg(R5, 0x00000000)  returns 0x00 (0000ms, 0393ms total)
T3ED0 000:657 JLINK_WriteReg(R6, 0x00000000)  returns 0x00 (0000ms, 0393ms total)
T3ED0 000:657 JLINK_WriteReg(R7, 0x00000000)  returns 0x00 (0000ms, 0393ms total)
T3ED0 000:657 JLINK_WriteReg(R8, 0x00000000)  returns 0x00 (0000ms, 0393ms total)
T3ED0 000:657 JLINK_WriteReg(R9, 0x20000E94)  returns 0x00 (0000ms, 0393ms total)
T3ED0 000:657 JLINK_WriteReg(R10, 0x00000000)  returns 0x00 (0000ms, 0393ms total)
T3ED0 000:657 JLINK_WriteReg(R11, 0x00000000)  returns 0x00 (0000ms, 0393ms total)
T3ED0 000:657 JLINK_WriteReg(R12, 0x00000000)  returns 0x00 (0000ms, 0393ms total)
T3ED0 000:657 JLINK_WriteReg(R13 (SP), 0x20008000)  returns 0x00 (0000ms, 0393ms total)
T3ED0 000:657 JLINK_WriteReg(R14, 0x20000001)  returns 0x00 (0000ms, 0393ms total)
T3ED0 000:657 JLINK_WriteReg(R15 (PC), 0x20000038)  returns 0x00 (0000ms, 0393ms total)
T3ED0 000:657 JLINK_WriteReg(XPSR, 0x01000000)  returns 0x00 (0000ms, 0393ms total)
T3ED0 000:657 JLINK_WriteReg(MSP, 0x20008000)  returns 0x00 (0000ms, 0393ms total)
T3ED0 000:658 JLINK_WriteReg(PSP, 0x20008000)  returns 0x00 (0000ms, 0393ms total)
T3ED0 000:658 JLINK_WriteReg(CFBP, 0x00000000)  returns 0x00 (0000ms, 0393ms total)
T3ED0 000:658 JLINK_SetBPEx(Addr = 0x20000000, Type = 0xFFFFFFF2) -- CPU_ReadMem(4 bytes @ 0x20000000) -- CPU_WriteMem(4 bytes @ 0x20000000) -- CPU_ReadMem(4 bytes @ 0x20000000) -- CPU_WriteMem(4 bytes @ 0x20000000) -- CPU_ReadMem(2 bytes @ 0x20000000)  returns 0x00000001 (0003ms, 0396ms total)
T3ED0 000:661 JLINK_Go() -- CPU_WriteMem(2 bytes @ 0x20000000) -- CPU_WriteMem(4 bytes @ 0xE0002028) -- CPU_WriteMem(4 bytes @ 0xE000202C) -- CPU_WriteMem(4 bytes @ 0xE0002030) -- CPU_WriteMem(4 bytes @ 0xE0002034) -- CPU_WriteMem(4 bytes @ 0xE0002038) -- CPU_WriteMem(4 bytes @ 0xE000203C) -- CPU_ReadMem(4 bytes @ 0xE0001000) -- CPU_WriteMem(4 bytes @ 0xE0002008) -- CPU_WriteMem(4 bytes @ 0xE000200C) -- CPU_WriteMem(4 bytes @ 0xE0002010) -- CPU_WriteMem(4 bytes @ 0xE0002014)
 -- CPU_WriteMem(4 bytes @ 0xE0002018) -- CPU_WriteMem(4 bytes @ 0xE000201C) -- CPU_WriteMem(4 bytes @ 0xE0002020) -- CPU_WriteMem(4 bytes @ 0xE0002024) -- CPU_WriteMem(4 bytes @ 0xE0001004) (0010ms, 0406ms total)
T3ED0 000:671 JLINK_IsHalted()  returns FALSE (0001ms, 0407ms total)
T3ED0 000:792 JLINK_IsHalted() -- CPU_ReadMem(2 bytes @ 0x20000000)  returns TRUE (0004ms, 0410ms total)
T3ED0 000:796 JLINK_ReadReg(R15 (PC))  returns 0x20000000 (0000ms, 0406ms total)
T3ED0 000:796 JLINK_ClrBPEx(BPHandle = 0x00000001)  returns 0x00 (0000ms, 0406ms total)
T3ED0 000:796 JLINK_ReadReg(R0)  returns 0x00000000 (0000ms, 0406ms total)
T3ED0 000:798 JLINK_WriteReg(R0, 0x01000000)  returns 0x00 (0000ms, 0406ms total)
T3ED0 000:798 JLINK_WriteReg(R1, 0x00001000)  returns 0x00 (0000ms, 0406ms total)
T3ED0 000:798 JLINK_WriteReg(R2, 0x000000FF)  returns 0x00 (0000ms, 0406ms total)
T3ED0 000:798 JLINK_WriteReg(R3, 0x00000000)  returns 0x00 (0000ms, 0406ms total)
T3ED0 000:798 JLINK_WriteReg(R4, 0x00000000)  returns 0x00 (0000ms, 0406ms total)
T3ED0 000:798 JLINK_WriteReg(R5, 0x00000000)  returns 0x00 (0000ms, 0406ms total)
T3ED0 000:798 JLINK_WriteReg(R6, 0x00000000)  returns 0x00 (0000ms, 0406ms total)
T3ED0 000:798 JLINK_WriteReg(R7, 0x00000000)  returns 0x00 (0000ms, 0406ms total)
T3ED0 000:798 JLINK_WriteReg(R8, 0x00000000)  returns 0x00 (0000ms, 0406ms total)
T3ED0 000:798 JLINK_WriteReg(R9, 0x20000E94)  returns 0x00 (0000ms, 0406ms total)
T3ED0 000:798 JLINK_WriteReg(R10, 0x00000000)  returns 0x00 (0000ms, 0406ms total)
T3ED0 000:798 JLINK_WriteReg(R11, 0x00000000)  returns 0x00 (0000ms, 0406ms total)
T3ED0 000:798 JLINK_WriteReg(R12, 0x00000000)  returns 0x00 (0000ms, 0406ms total)
T3ED0 000:798 JLINK_WriteReg(R13 (SP), 0x20008000)  returns 0x00 (0000ms, 0406ms total)
T3ED0 000:798 JLINK_WriteReg(R14, 0x20000001)  returns 0x00 (0000ms, 0406ms total)
T3ED0 000:798 JLINK_WriteReg(R15 (PC), 0x20000020)  returns 0x00 (0000ms, 0406ms total)
T3ED0 000:798 JLINK_WriteReg(XPSR, 0x01000000)  returns 0x00 (0000ms, 0406ms total)
T3ED0 000:798 JLINK_WriteReg(MSP, 0x20008000)  returns 0x00 (0000ms, 0406ms total)
T3ED0 000:798 JLINK_WriteReg(PSP, 0x20008000)  returns 0x00 (0000ms, 0406ms total)
T3ED0 000:798 JLINK_WriteReg(CFBP, 0x00000000)  returns 0x00 (0000ms, 0406ms total)
T3ED0 000:798 JLINK_SetBPEx(Addr = 0x20000000, Type = 0xFFFFFFF2)  returns 0x00000002 (0000ms, 0406ms total)
T3ED0 000:798 JLINK_Go() -- CPU_WriteMem(4 bytes @ 0xE0002028) -- CPU_WriteMem(4 bytes @ 0xE000202C) -- CPU_WriteMem(4 bytes @ 0xE0002030) -- CPU_WriteMem(4 bytes @ 0xE0002034) -- CPU_WriteMem(4 bytes @ 0xE0002038) -- CPU_WriteMem(4 bytes @ 0xE000203C) -- CPU_ReadMem(4 bytes @ 0xE0001000) (0007ms, 0413ms total)
T3ED0 000:805 JLINK_IsHalted() -- CPU_ReadMem(2 bytes @ 0x20000000)  returns TRUE (0005ms, 0418ms total)
T3ED0 000:810 JLINK_ReadReg(R15 (PC))  returns 0x20000000 (0000ms, 0413ms total)
T3ED0 000:810 JLINK_ClrBPEx(BPHandle = 0x00000002)  returns 0x00 (0000ms, 0413ms total)
T3ED0 000:810 JLINK_ReadReg(R0)  returns 0x00000001 (0000ms, 0413ms total)
T3ED0 000:810 JLINK_WriteReg(R0, 0x01000000)  returns 0x00 (0000ms, 0413ms total)
T3ED0 000:810 JLINK_WriteReg(R1, 0x00001000)  returns 0x00 (0000ms, 0413ms total)
T3ED0 000:810 JLINK_WriteReg(R2, 0x000000FF)  returns 0x00 (0000ms, 0413ms total)
T3ED0 000:810 JLINK_WriteReg(R3, 0x00000000)  returns 0x00 (0000ms, 0413ms total)
T3ED0 000:810 JLINK_WriteReg(R4, 0x00000000)  returns 0x00 (0000ms, 0413ms total)
T3ED0 000:810 JLINK_WriteReg(R5, 0x00000000)  returns 0x00 (0000ms, 0413ms total)
T3ED0 000:810 JLINK_WriteReg(R6, 0x00000000)  returns 0x00 (0000ms, 0413ms total)
T3ED0 000:810 JLINK_WriteReg(R7, 0x00000000)  returns 0x00 (0000ms, 0413ms total)
T3ED0 000:810 JLINK_WriteReg(R8, 0x00000000)  returns 0x00 (0000ms, 0413ms total)
T3ED0 000:810 JLINK_WriteReg(R9, 0x20000E94)  returns 0x00 (0000ms, 0413ms total)
T3ED0 000:810 JLINK_WriteReg(R10, 0x00000000)  returns 0x00 (0000ms, 0413ms total)
T3ED0 000:810 JLINK_WriteReg(R11, 0x00000000)  returns 0x00 (0000ms, 0413ms total)
T3ED0 000:810 JLINK_WriteReg(R12, 0x00000000)  returns 0x00 (0000ms, 0413ms total)
T3ED0 000:810 JLINK_WriteReg(R13 (SP), 0x20008000)  returns 0x00 (0000ms, 0413ms total)
T3ED0 000:810 JLINK_WriteReg(R14, 0x20000001)  returns 0x00 (0000ms, 0413ms total)
T3ED0 000:810 JLINK_WriteReg(R15 (PC), 0x20000094)  returns 0x00 (0000ms, 0413ms total)
T3ED0 000:810 JLINK_WriteReg(XPSR, 0x01000000)  returns 0x00 (0000ms, 0413ms total)
T3ED0 000:810 JLINK_WriteReg(MSP, 0x20008000)  returns 0x00 (0000ms, 0413ms total)
T3ED0 000:810 JLINK_WriteReg(PSP, 0x20008000)  returns 0x00 (0000ms, 0413ms total)
T3ED0 000:810 JLINK_WriteReg(CFBP, 0x00000000)  returns 0x00 (0000ms, 0413ms total)
T3ED0 000:810 JLINK_SetBPEx(Addr = 0x20000000, Type = 0xFFFFFFF2)  returns 0x00000003 (0000ms, 0413ms total)
T3ED0 000:810 JLINK_Go() -- CPU_WriteMem(4 bytes @ 0xE0002028) -- CPU_WriteMem(4 bytes @ 0xE000202C) -- CPU_WriteMem(4 bytes @ 0xE0002030) -- CPU_WriteMem(4 bytes @ 0xE0002034) -- CPU_WriteMem(4 bytes @ 0xE0002038) -- CPU_WriteMem(4 bytes @ 0xE000203C) -- CPU_ReadMem(4 bytes @ 0xE0001000) (0007ms, 0420ms total)
T3ED0 000:817 JLINK_IsHalted()  returns FALSE (0000ms, 0420ms total)
T3ED0 000:821 JLINK_IsHalted()  returns FALSE (0000ms, 0420ms total)
T3ED0 000:823 JLINK_IsHalted()  returns FALSE (0000ms, 0420ms total)
T3ED0 000:825 JLINK_IsHalted()  returns FALSE (0000ms, 0420ms total)
T3ED0 000:827 JLINK_IsHalted() -- CPU_ReadMem(2 bytes @ 0x20000000)  returns TRUE (0004ms, 0424ms total)
T3ED0 000:831 JLINK_ReadReg(R15 (PC))  returns 0x20000000 (0000ms, 0420ms total)
T3ED0 000:831 JLINK_ClrBPEx(BPHandle = 0x00000003)  returns 0x00 (0000ms, 0420ms total)
T3ED0 000:831 JLINK_ReadReg(R0)  returns 0x00000000 (0000ms, 0420ms total)
T3ED0 000:833 JLINK_WriteReg(R0, 0x01001000)  returns 0x00 (0000ms, 0420ms total)
T3ED0 000:833 JLINK_WriteReg(R1, 0x00001000)  returns 0x00 (0000ms, 0420ms total)
T3ED0 000:833 JLINK_WriteReg(R2, 0x000000FF)  returns 0x00 (0000ms, 0420ms total)
T3ED0 000:833 JLINK_WriteReg(R3, 0x00000000)  returns 0x00 (0000ms, 0420ms total)
T3ED0 000:833 JLINK_WriteReg(R4, 0x00000000)  returns 0x00 (0000ms, 0420ms total)
T3ED0 000:833 JLINK_WriteReg(R5, 0x00000000)  returns 0x00 (0000ms, 0420ms total)
T3ED0 000:833 JLINK_WriteReg(R6, 0x00000000)  returns 0x00 (0000ms, 0420ms total)
T3ED0 000:833 JLINK_WriteReg(R7, 0x00000000)  returns 0x00 (0000ms, 0420ms total)
T3ED0 000:833 JLINK_WriteReg(R8, 0x00000000)  returns 0x00 (0000ms, 0420ms total)
T3ED0 000:833 JLINK_WriteReg(R9, 0x20000E94)  returns 0x00 (0000ms, 0420ms total)
T3ED0 000:833 JLINK_WriteReg(R10, 0x00000000)  returns 0x00 (0000ms, 0420ms total)
T3ED0 000:833 JLINK_WriteReg(R11, 0x00000000)  returns 0x00 (0000ms, 0420ms total)
T3ED0 000:833 JLINK_WriteReg(R12, 0x00000000)  returns 0x00 (0000ms, 0420ms total)
T3ED0 000:833 JLINK_WriteReg(R13 (SP), 0x20008000)  returns 0x00 (0000ms, 0420ms total)
T3ED0 000:833 JLINK_WriteReg(R14, 0x20000001)  returns 0x00 (0000ms, 0420ms total)
T3ED0 000:833 JLINK_WriteReg(R15 (PC), 0x20000020)  returns 0x00 (0000ms, 0420ms total)
T3ED0 000:833 JLINK_WriteReg(XPSR, 0x01000000)  returns 0x00 (0000ms, 0420ms total)
T3ED0 000:833 JLINK_WriteReg(MSP, 0x20008000)  returns 0x00 (0000ms, 0420ms total)
T3ED0 000:833 JLINK_WriteReg(PSP, 0x20008000)  returns 0x00 (0000ms, 0420ms total)
T3ED0 000:833 JLINK_WriteReg(CFBP, 0x00000000)  returns 0x00 (0000ms, 0420ms total)
T3ED0 000:833 JLINK_SetBPEx(Addr = 0x20000000, Type = 0xFFFFFFF2)  returns 0x00000004 (0000ms, 0420ms total)
T3ED0 000:833 JLINK_Go() -- CPU_WriteMem(4 bytes @ 0xE0002028) -- CPU_WriteMem(4 bytes @ 0xE000202C) -- CPU_WriteMem(4 bytes @ 0xE0002030) -- CPU_WriteMem(4 bytes @ 0xE0002034) -- CPU_WriteMem(4 bytes @ 0xE0002038) -- CPU_WriteMem(4 bytes @ 0xE000203C) -- CPU_ReadMem(4 bytes @ 0xE0001000) (0007ms, 0427ms total)
T3ED0 000:840 JLINK_IsHalted() -- CPU_ReadMem(2 bytes @ 0x20000000)  returns TRUE (0005ms, 0432ms total)
T3ED0 000:845 JLINK_ReadReg(R15 (PC))  returns 0x20000000 (0000ms, 0427ms total)
T3ED0 000:845 JLINK_ClrBPEx(BPHandle = 0x00000004)  returns 0x00 (0000ms, 0427ms total)
T3ED0 000:845 JLINK_ReadReg(R0)  returns 0x00000001 (0000ms, 0427ms total)
T3ED0 000:845 JLINK_WriteReg(R0, 0x01001000)  returns 0x00 (0000ms, 0427ms total)
T3ED0 000:845 JLINK_WriteReg(R1, 0x00001000)  returns 0x00 (0000ms, 0427ms total)
T3ED0 000:845 JLINK_WriteReg(R2, 0x000000FF)  returns 0x00 (0000ms, 0427ms total)
T3ED0 000:845 JLINK_WriteReg(R3, 0x00000000)  returns 0x00 (0000ms, 0427ms total)
T3ED0 000:845 JLINK_WriteReg(R4, 0x00000000)  returns 0x00 (0000ms, 0427ms total)
T3ED0 000:845 JLINK_WriteReg(R5, 0x00000000)  returns 0x00 (0000ms, 0427ms total)
T3ED0 000:845 JLINK_WriteReg(R6, 0x00000000)  returns 0x00 (0000ms, 0427ms total)
T3ED0 000:845 JLINK_WriteReg(R7, 0x00000000)  returns 0x00 (0000ms, 0427ms total)
T3ED0 000:845 JLINK_WriteReg(R8, 0x00000000)  returns 0x00 (0000ms, 0427ms total)
T3ED0 000:845 JLINK_WriteReg(R9, 0x20000E94)  returns 0x00 (0000ms, 0427ms total)
T3ED0 000:845 JLINK_WriteReg(R10, 0x00000000)  returns 0x00 (0000ms, 0427ms total)
T3ED0 000:845 JLINK_WriteReg(R11, 0x00000000)  returns 0x00 (0000ms, 0427ms total)
T3ED0 000:845 JLINK_WriteReg(R12, 0x00000000)  returns 0x00 (0000ms, 0427ms total)
T3ED0 000:846 JLINK_WriteReg(R13 (SP), 0x20008000)  returns 0x00 (0000ms, 0427ms total)
T3ED0 000:846 JLINK_WriteReg(R14, 0x20000001)  returns 0x00 (0000ms, 0427ms total)
T3ED0 000:846 JLINK_WriteReg(R15 (PC), 0x20000094)  returns 0x00 (0000ms, 0427ms total)
T3ED0 000:846 JLINK_WriteReg(XPSR, 0x01000000)  returns 0x00 (0000ms, 0427ms total)
T3ED0 000:846 JLINK_WriteReg(MSP, 0x20008000)  returns 0x00 (0000ms, 0427ms total)
T3ED0 000:846 JLINK_WriteReg(PSP, 0x20008000)  returns 0x00 (0000ms, 0427ms total)
T3ED0 000:846 JLINK_WriteReg(CFBP, 0x00000000)  returns 0x00 (0000ms, 0427ms total)
T3ED0 000:846 JLINK_SetBPEx(Addr = 0x20000000, Type = 0xFFFFFFF2)  returns 0x00000005 (0000ms, 0427ms total)
T3ED0 000:846 JLINK_Go() -- CPU_WriteMem(4 bytes @ 0xE0002028) -- CPU_WriteMem(4 bytes @ 0xE000202C) -- CPU_WriteMem(4 bytes @ 0xE0002030) -- CPU_WriteMem(4 bytes @ 0xE0002034) -- CPU_WriteMem(4 bytes @ 0xE0002038) -- CPU_WriteMem(4 bytes @ 0xE000203C) -- CPU_ReadMem(4 bytes @ 0xE0001000) (0006ms, 0433ms total)
T3ED0 000:852 JLINK_IsHalted()  returns FALSE (0001ms, 0434ms total)
T3ED0 000:855 JLINK_IsHalted()  returns FALSE (0000ms, 0433ms total)
T3ED0 000:857 JLINK_IsHalted()  returns FALSE (0000ms, 0433ms total)
T3ED0 000:859 JLINK_IsHalted()  returns FALSE (0000ms, 0433ms total)
T3ED0 000:861 JLINK_IsHalted()  returns FALSE (0000ms, 0433ms total)
T3ED0 000:863 JLINK_IsHalted() -- CPU_ReadMem(2 bytes @ 0x20000000)  returns TRUE (0004ms, 0437ms total)
T3ED0 000:867 JLINK_ReadReg(R15 (PC))  returns 0x20000000 (0000ms, 0433ms total)
T3ED0 000:867 JLINK_ClrBPEx(BPHandle = 0x00000005)  returns 0x00 (0000ms, 0433ms total)
T3ED0 000:867 JLINK_ReadReg(R0)  returns 0x00000000 (0000ms, 0433ms total)
T3ED0 000:868 JLINK_WriteReg(R0, 0x01002000)  returns 0x00 (0000ms, 0433ms total)
T3ED0 000:868 JLINK_WriteReg(R1, 0x00001000)  returns 0x00 (0000ms, 0433ms total)
T3ED0 000:868 JLINK_WriteReg(R2, 0x000000FF)  returns 0x00 (0000ms, 0433ms total)
T3ED0 000:868 JLINK_WriteReg(R3, 0x00000000)  returns 0x00 (0000ms, 0433ms total)
T3ED0 000:868 JLINK_WriteReg(R4, 0x00000000)  returns 0x00 (0000ms, 0433ms total)
T3ED0 000:868 JLINK_WriteReg(R5, 0x00000000)  returns 0x00 (0000ms, 0433ms total)
T3ED0 000:868 JLINK_WriteReg(R6, 0x00000000)  returns 0x00 (0000ms, 0433ms total)
T3ED0 000:868 JLINK_WriteReg(R7, 0x00000000)  returns 0x00 (0000ms, 0433ms total)
T3ED0 000:868 JLINK_WriteReg(R8, 0x00000000)  returns 0x00 (0000ms, 0433ms total)
T3ED0 000:868 JLINK_WriteReg(R9, 0x20000E94)  returns 0x00 (0000ms, 0433ms total)
T3ED0 000:869 JLINK_WriteReg(R10, 0x00000000)  returns 0x00 (0000ms, 0433ms total)
T3ED0 000:869 JLINK_WriteReg(R11, 0x00000000)  returns 0x00 (0000ms, 0433ms total)
T3ED0 000:869 JLINK_WriteReg(R12, 0x00000000)  returns 0x00 (0000ms, 0433ms total)
T3ED0 000:869 JLINK_WriteReg(R13 (SP), 0x20008000)  returns 0x00 (0000ms, 0433ms total)
T3ED0 000:869 JLINK_WriteReg(R14, 0x20000001)  returns 0x00 (0000ms, 0433ms total)
T3ED0 000:869 JLINK_WriteReg(R15 (PC), 0x20000020)  returns 0x00 (0000ms, 0433ms total)
T3ED0 000:869 JLINK_WriteReg(XPSR, 0x01000000)  returns 0x00 (0000ms, 0433ms total)
T3ED0 000:869 JLINK_WriteReg(MSP, 0x20008000)  returns 0x00 (0000ms, 0433ms total)
T3ED0 000:869 JLINK_WriteReg(PSP, 0x20008000)  returns 0x00 (0000ms, 0433ms total)
T3ED0 000:869 JLINK_WriteReg(CFBP, 0x00000000)  returns 0x00 (0000ms, 0433ms total)
T3ED0 000:869 JLINK_SetBPEx(Addr = 0x20000000, Type = 0xFFFFFFF2)  returns 0x00000006 (0000ms, 0433ms total)
T3ED0 000:869 JLINK_Go() -- CPU_WriteMem(4 bytes @ 0xE0002028) -- CPU_WriteMem(4 bytes @ 0xE000202C) -- CPU_WriteMem(4 bytes @ 0xE0002030) -- CPU_WriteMem(4 bytes @ 0xE0002034) -- CPU_WriteMem(4 bytes @ 0xE0002038) -- CPU_WriteMem(4 bytes @ 0xE000203C) -- CPU_ReadMem(4 bytes @ 0xE0001000) (0006ms, 0439ms total)
T3ED0 000:875 JLINK_IsHalted() -- CPU_ReadMem(2 bytes @ 0x20000000)  returns TRUE (0005ms, 0444ms total)
T3ED0 000:880 JLINK_ReadReg(R15 (PC))  returns 0x20000000 (0000ms, 0439ms total)
T3ED0 000:880 JLINK_ClrBPEx(BPHandle = 0x00000006)  returns 0x00 (0000ms, 0439ms total)
T3ED0 000:880 JLINK_ReadReg(R0)  returns 0x00000001 (0000ms, 0439ms total)
T3ED0 000:880 JLINK_WriteReg(R0, 0x01002000)  returns 0x00 (0000ms, 0439ms total)
T3ED0 000:880 JLINK_WriteReg(R1, 0x00001000)  returns 0x00 (0000ms, 0439ms total)
T3ED0 000:880 JLINK_WriteReg(R2, 0x000000FF)  returns 0x00 (0000ms, 0439ms total)
T3ED0 000:880 JLINK_WriteReg(R3, 0x00000000)  returns 0x00 (0000ms, 0439ms total)
T3ED0 000:880 JLINK_WriteReg(R4, 0x00000000)  returns 0x00 (0000ms, 0439ms total)
T3ED0 000:880 JLINK_WriteReg(R5, 0x00000000)  returns 0x00 (0000ms, 0439ms total)
T3ED0 000:880 JLINK_WriteReg(R6, 0x00000000)  returns 0x00 (0000ms, 0439ms total)
T3ED0 000:880 JLINK_WriteReg(R7, 0x00000000)  returns 0x00 (0000ms, 0439ms total)
T3ED0 000:880 JLINK_WriteReg(R8, 0x00000000)  returns 0x00 (0000ms, 0439ms total)
T3ED0 000:880 JLINK_WriteReg(R9, 0x20000E94)  returns 0x00 (0000ms, 0439ms total)
T3ED0 000:880 JLINK_WriteReg(R10, 0x00000000)  returns 0x00 (0000ms, 0439ms total)
T3ED0 000:881 JLINK_WriteReg(R11, 0x00000000)  returns 0x00 (0000ms, 0440ms total)
T3ED0 000:881 JLINK_WriteReg(R12, 0x00000000)  returns 0x00 (0000ms, 0440ms total)
T3ED0 000:881 JLINK_WriteReg(R13 (SP), 0x20008000)  returns 0x00 (0000ms, 0440ms total)
T3ED0 000:881 JLINK_WriteReg(R14, 0x20000001)  returns 0x00 (0000ms, 0440ms total)
T3ED0 000:881 JLINK_WriteReg(R15 (PC), 0x20000094)  returns 0x00 (0000ms, 0440ms total)
T3ED0 000:881 JLINK_WriteReg(XPSR, 0x01000000)  returns 0x00 (0000ms, 0440ms total)
T3ED0 000:881 JLINK_WriteReg(MSP, 0x20008000)  returns 0x00 (0000ms, 0440ms total)
T3ED0 000:881 JLINK_WriteReg(PSP, 0x20008000)  returns 0x00 (0000ms, 0440ms total)
T3ED0 000:881 JLINK_WriteReg(CFBP, 0x00000000)  returns 0x00 (0000ms, 0440ms total)
T3ED0 000:881 JLINK_SetBPEx(Addr = 0x20000000, Type = 0xFFFFFFF2)  returns 0x00000007 (0000ms, 0440ms total)
T3ED0 000:881 JLINK_Go() -- CPU_WriteMem(4 bytes @ 0xE0002028) -- CPU_WriteMem(4 bytes @ 0xE000202C) -- CPU_WriteMem(4 bytes @ 0xE0002030) -- CPU_WriteMem(4 bytes @ 0xE0002034) -- CPU_WriteMem(4 bytes @ 0xE0002038) -- CPU_WriteMem(4 bytes @ 0xE000203C) -- CPU_ReadMem(4 bytes @ 0xE0001000) (0006ms, 0446ms total)
T3ED0 000:887 JLINK_IsHalted()  returns FALSE (0001ms, 0447ms total)
T3ED0 000:891 JLINK_IsHalted()  returns FALSE (0000ms, 0446ms total)
T3ED0 000:893 JLINK_IsHalted()  returns FALSE (0000ms, 0446ms total)
T3ED0 000:895 JLINK_IsHalted()  returns FALSE (0000ms, 0446ms total)
T3ED0 000:897 JLINK_IsHalted() -- CPU_ReadMem(2 bytes @ 0x20000000)  returns TRUE (0004ms, 0450ms total)
T3ED0 000:901 JLINK_ReadReg(R15 (PC))  returns 0x20000000 (0000ms, 0446ms total)
T3ED0 000:901 JLINK_ClrBPEx(BPHandle = 0x00000007)  returns 0x00 (0000ms, 0446ms total)
T3ED0 000:901 JLINK_ReadReg(R0)  returns 0x00000000 (0000ms, 0446ms total)
T3ED0 000:901 JLINK_WriteReg(R0, 0x01003000)  returns 0x00 (0000ms, 0446ms total)
T3ED0 000:901 JLINK_WriteReg(R1, 0x00001000)  returns 0x00 (0000ms, 0446ms total)
T3ED0 000:901 JLINK_WriteReg(R2, 0x000000FF)  returns 0x00 (0000ms, 0446ms total)
T3ED0 000:901 JLINK_WriteReg(R3, 0x00000000)  returns 0x00 (0001ms, 0447ms total)
T3ED0 000:902 JLINK_WriteReg(R4, 0x00000000)  returns 0x00 (0000ms, 0447ms total)
T3ED0 000:902 JLINK_WriteReg(R5, 0x00000000)  returns 0x00 (0000ms, 0447ms total)
T3ED0 000:902 JLINK_WriteReg(R6, 0x00000000)  returns 0x00 (0000ms, 0447ms total)
T3ED0 000:902 JLINK_WriteReg(R7, 0x00000000)  returns 0x00 (0000ms, 0447ms total)
T3ED0 000:902 JLINK_WriteReg(R8, 0x00000000)  returns 0x00 (0000ms, 0447ms total)
T3ED0 000:902 JLINK_WriteReg(R9, 0x20000E94)  returns 0x00 (0000ms, 0447ms total)
T3ED0 000:902 JLINK_WriteReg(R10, 0x00000000)  returns 0x00 (0000ms, 0447ms total)
T3ED0 000:902 JLINK_WriteReg(R11, 0x00000000)  returns 0x00 (0000ms, 0447ms total)
T3ED0 000:902 JLINK_WriteReg(R12, 0x00000000)  returns 0x00 (0000ms, 0447ms total)
T3ED0 000:902 JLINK_WriteReg(R13 (SP), 0x20008000)  returns 0x00 (0000ms, 0447ms total)
T3ED0 000:902 JLINK_WriteReg(R14, 0x20000001)  returns 0x00 (0000ms, 0447ms total)
T3ED0 000:902 JLINK_WriteReg(R15 (PC), 0x20000020)  returns 0x00 (0000ms, 0447ms total)
T3ED0 000:902 JLINK_WriteReg(XPSR, 0x01000000)  returns 0x00 (0000ms, 0447ms total)
T3ED0 000:902 JLINK_WriteReg(MSP, 0x20008000)  returns 0x00 (0000ms, 0447ms total)
T3ED0 000:902 JLINK_WriteReg(PSP, 0x20008000)  returns 0x00 (0000ms, 0447ms total)
T3ED0 000:902 JLINK_WriteReg(CFBP, 0x00000000)  returns 0x00 (0000ms, 0447ms total)
T3ED0 000:902 JLINK_SetBPEx(Addr = 0x20000000, Type = 0xFFFFFFF2)  returns 0x00000008 (0000ms, 0447ms total)
T3ED0 000:902 JLINK_Go() -- CPU_WriteMem(4 bytes @ 0xE0002028) -- CPU_WriteMem(4 bytes @ 0xE000202C) -- CPU_WriteMem(4 bytes @ 0xE0002030) -- CPU_WriteMem(4 bytes @ 0xE0002034) -- CPU_WriteMem(4 bytes @ 0xE0002038) -- CPU_WriteMem(4 bytes @ 0xE000203C) -- CPU_ReadMem(4 bytes @ 0xE0001000) (0006ms, 0453ms total)
T3ED0 000:908 JLINK_IsHalted() -- CPU_ReadMem(2 bytes @ 0x20000000)  returns TRUE (0005ms, 0458ms total)
T3ED0 000:913 JLINK_ReadReg(R15 (PC))  returns 0x20000000 (0000ms, 0453ms total)
T3ED0 000:913 JLINK_ClrBPEx(BPHandle = 0x00000008)  returns 0x00 (0000ms, 0453ms total)
T3ED0 000:913 JLINK_ReadReg(R0)  returns 0x00000001 (0000ms, 0453ms total)
T3ED0 000:913 JLINK_WriteReg(R0, 0x01003000)  returns 0x00 (0000ms, 0453ms total)
T3ED0 000:913 JLINK_WriteReg(R1, 0x00001000)  returns 0x00 (0000ms, 0453ms total)
T3ED0 000:913 JLINK_WriteReg(R2, 0x000000FF)  returns 0x00 (0000ms, 0453ms total)
T3ED0 000:913 JLINK_WriteReg(R3, 0x00000000)  returns 0x00 (0000ms, 0453ms total)
T3ED0 000:913 JLINK_WriteReg(R4, 0x00000000)  returns 0x00 (0000ms, 0453ms total)
T3ED0 000:913 JLINK_WriteReg(R5, 0x00000000)  returns 0x00 (0000ms, 0453ms total)
T3ED0 000:913 JLINK_WriteReg(R6, 0x00000000)  returns 0x00 (0000ms, 0453ms total)
T3ED0 000:913 JLINK_WriteReg(R7, 0x00000000)  returns 0x00 (0000ms, 0453ms total)
T3ED0 000:913 JLINK_WriteReg(R8, 0x00000000)  returns 0x00 (0000ms, 0453ms total)
T3ED0 000:913 JLINK_WriteReg(R9, 0x20000E94)  returns 0x00 (0000ms, 0453ms total)
T3ED0 000:913 JLINK_WriteReg(R10, 0x00000000)  returns 0x00 (0000ms, 0453ms total)
T3ED0 000:913 JLINK_WriteReg(R11, 0x00000000)  returns 0x00 (0000ms, 0453ms total)
T3ED0 000:913 JLINK_WriteReg(R12, 0x00000000)  returns 0x00 (0000ms, 0453ms total)
T3ED0 000:913 JLINK_WriteReg(R13 (SP), 0x20008000)  returns 0x00 (0000ms, 0453ms total)
T3ED0 000:913 JLINK_WriteReg(R14, 0x20000001)  returns 0x00 (0000ms, 0453ms total)
T3ED0 000:913 JLINK_WriteReg(R15 (PC), 0x20000094)  returns 0x00 (0000ms, 0453ms total)
T3ED0 000:913 JLINK_WriteReg(XPSR, 0x01000000)  returns 0x00 (0000ms, 0453ms total)
T3ED0 000:913 JLINK_WriteReg(MSP, 0x20008000)  returns 0x00 (0000ms, 0453ms total)
T3ED0 000:913 JLINK_WriteReg(PSP, 0x20008000)  returns 0x00 (0001ms, 0454ms total)
T3ED0 000:914 JLINK_WriteReg(CFBP, 0x00000000)  returns 0x00 (0000ms, 0454ms total)
T3ED0 000:914 JLINK_SetBPEx(Addr = 0x20000000, Type = 0xFFFFFFF2)  returns 0x00000009 (0000ms, 0454ms total)
T3ED0 000:914 JLINK_Go() -- CPU_WriteMem(4 bytes @ 0xE0002028) -- CPU_WriteMem(4 bytes @ 0xE000202C) -- CPU_WriteMem(4 bytes @ 0xE0002030) -- CPU_WriteMem(4 bytes @ 0xE0002034) -- CPU_WriteMem(4 bytes @ 0xE0002038) -- CPU_WriteMem(4 bytes @ 0xE000203C) -- CPU_ReadMem(4 bytes @ 0xE0001000) (0006ms, 0460ms total)
T3ED0 000:920 JLINK_IsHalted()  returns FALSE (0001ms, 0461ms total)
T3ED0 000:923 JLINK_IsHalted()  returns FALSE (0000ms, 0460ms total)
T3ED0 000:925 JLINK_IsHalted()  returns FALSE (0000ms, 0460ms total)
T3ED0 000:927 JLINK_IsHalted()  returns FALSE (0000ms, 0460ms total)
T3ED0 000:929 JLINK_IsHalted() -- CPU_ReadMem(2 bytes @ 0x20000000)  returns TRUE (0004ms, 0464ms total)
T3ED0 000:933 JLINK_ReadReg(R15 (PC))  returns 0x20000000 (0000ms, 0460ms total)
T3ED0 000:933 JLINK_ClrBPEx(BPHandle = 0x00000009)  returns 0x00 (0000ms, 0460ms total)
T3ED0 000:933 JLINK_ReadReg(R0)  returns 0x00000000 (0000ms, 0460ms total)
T3ED0 000:934 JLINK_WriteReg(R0, 0x01004000)  returns 0x00 (0000ms, 0460ms total)
T3ED0 000:934 JLINK_WriteReg(R1, 0x00001000)  returns 0x00 (0000ms, 0460ms total)
T3ED0 000:934 JLINK_WriteReg(R2, 0x000000FF)  returns 0x00 (0000ms, 0460ms total)
T3ED0 000:935 JLINK_WriteReg(R3, 0x00000000)  returns 0x00 (0000ms, 0460ms total)
T3ED0 000:935 JLINK_WriteReg(R4, 0x00000000)  returns 0x00 (0000ms, 0460ms total)
T3ED0 000:935 JLINK_WriteReg(R5, 0x00000000)  returns 0x00 (0000ms, 0460ms total)
T3ED0 000:935 JLINK_WriteReg(R6, 0x00000000)  returns 0x00 (0000ms, 0460ms total)
T3ED0 000:935 JLINK_WriteReg(R7, 0x00000000)  returns 0x00 (0000ms, 0460ms total)
T3ED0 000:935 JLINK_WriteReg(R8, 0x00000000)  returns 0x00 (0000ms, 0460ms total)
T3ED0 000:935 JLINK_WriteReg(R9, 0x20000E94)  returns 0x00 (0000ms, 0460ms total)
T3ED0 000:935 JLINK_WriteReg(R10, 0x00000000)  returns 0x00 (0000ms, 0460ms total)
T3ED0 000:935 JLINK_WriteReg(R11, 0x00000000)  returns 0x00 (0000ms, 0460ms total)
T3ED0 000:935 JLINK_WriteReg(R12, 0x00000000)  returns 0x00 (0000ms, 0460ms total)
T3ED0 000:935 JLINK_WriteReg(R13 (SP), 0x20008000)  returns 0x00 (0000ms, 0460ms total)
T3ED0 000:935 JLINK_WriteReg(R14, 0x20000001)  returns 0x00 (0000ms, 0460ms total)
T3ED0 000:935 JLINK_WriteReg(R15 (PC), 0x20000020)  returns 0x00 (0000ms, 0460ms total)
T3ED0 000:935 JLINK_WriteReg(XPSR, 0x01000000)  returns 0x00 (0000ms, 0460ms total)
T3ED0 000:935 JLINK_WriteReg(MSP, 0x20008000)  returns 0x00 (0000ms, 0460ms total)
T3ED0 000:935 JLINK_WriteReg(PSP, 0x20008000)  returns 0x00 (0000ms, 0460ms total)
T3ED0 000:935 JLINK_WriteReg(CFBP, 0x00000000)  returns 0x00 (0000ms, 0460ms total)
T3ED0 000:935 JLINK_SetBPEx(Addr = 0x20000000, Type = 0xFFFFFFF2)  returns 0x0000000A (0000ms, 0460ms total)
T3ED0 000:935 JLINK_Go() -- CPU_WriteMem(4 bytes @ 0xE0002028) -- CPU_WriteMem(4 bytes @ 0xE000202C) -- CPU_WriteMem(4 bytes @ 0xE0002030) -- CPU_WriteMem(4 bytes @ 0xE0002034) -- CPU_WriteMem(4 bytes @ 0xE0002038) -- CPU_WriteMem(4 bytes @ 0xE000203C) -- CPU_ReadMem(4 bytes @ 0xE0001000) (0007ms, 0467ms total)
T3ED0 000:942 JLINK_IsHalted() -- CPU_ReadMem(2 bytes @ 0x20000000)  returns TRUE (0004ms, 0471ms total)
T3ED0 000:946 JLINK_ReadReg(R15 (PC))  returns 0x20000000 (0001ms, 0468ms total)
T3ED0 000:947 JLINK_ClrBPEx(BPHandle = 0x0000000A)  returns 0x00 (0000ms, 0468ms total)
T3ED0 000:947 JLINK_ReadReg(R0)  returns 0x00000001 (0000ms, 0468ms total)
T3ED0 000:947 JLINK_WriteReg(R0, 0x01004000)  returns 0x00 (0000ms, 0468ms total)
T3ED0 000:947 JLINK_WriteReg(R1, 0x00001000)  returns 0x00 (0000ms, 0468ms total)
T3ED0 000:947 JLINK_WriteReg(R2, 0x000000FF)  returns 0x00 (0000ms, 0468ms total)
T3ED0 000:947 JLINK_WriteReg(R3, 0x00000000)  returns 0x00 (0000ms, 0468ms total)
T3ED0 000:947 JLINK_WriteReg(R4, 0x00000000)  returns 0x00 (0000ms, 0468ms total)
T3ED0 000:947 JLINK_WriteReg(R5, 0x00000000)  returns 0x00 (0000ms, 0468ms total)
T3ED0 000:947 JLINK_WriteReg(R6, 0x00000000)  returns 0x00 (0000ms, 0468ms total)
T3ED0 000:947 JLINK_WriteReg(R7, 0x00000000)  returns 0x00 (0000ms, 0468ms total)
T3ED0 000:947 JLINK_WriteReg(R8, 0x00000000)  returns 0x00 (0000ms, 0468ms total)
T3ED0 000:947 JLINK_WriteReg(R9, 0x20000E94)  returns 0x00 (0000ms, 0468ms total)
T3ED0 000:947 JLINK_WriteReg(R10, 0x00000000)  returns 0x00 (0000ms, 0468ms total)
T3ED0 000:947 JLINK_WriteReg(R11, 0x00000000)  returns 0x00 (0000ms, 0468ms total)
T3ED0 000:947 JLINK_WriteReg(R12, 0x00000000)  returns 0x00 (0000ms, 0468ms total)
T3ED0 000:947 JLINK_WriteReg(R13 (SP), 0x20008000)  returns 0x00 (0000ms, 0468ms total)
T3ED0 000:947 JLINK_WriteReg(R14, 0x20000001)  returns 0x00 (0000ms, 0468ms total)
T3ED0 000:947 JLINK_WriteReg(R15 (PC), 0x20000094)  returns 0x00 (0000ms, 0468ms total)
T3ED0 000:947 JLINK_WriteReg(XPSR, 0x01000000)  returns 0x00 (0000ms, 0468ms total)
T3ED0 000:947 JLINK_WriteReg(MSP, 0x20008000)  returns 0x00 (0000ms, 0468ms total)
T3ED0 000:947 JLINK_WriteReg(PSP, 0x20008000)  returns 0x00 (0000ms, 0468ms total)
T3ED0 000:947 JLINK_WriteReg(CFBP, 0x00000000)  returns 0x00 (0000ms, 0468ms total)
T3ED0 000:947 JLINK_SetBPEx(Addr = 0x20000000, Type = 0xFFFFFFF2)  returns 0x0000000B (0000ms, 0468ms total)
T3ED0 000:947 JLINK_Go() -- CPU_WriteMem(4 bytes @ 0xE0002028) -- CPU_WriteMem(4 bytes @ 0xE000202C) -- CPU_WriteMem(4 bytes @ 0xE0002030) -- CPU_WriteMem(4 bytes @ 0xE0002034) -- CPU_WriteMem(4 bytes @ 0xE0002038) -- CPU_WriteMem(4 bytes @ 0xE000203C) -- CPU_ReadMem(4 bytes @ 0xE0001000) (0006ms, 0474ms total)
T3ED0 000:953 JLINK_IsHalted()  returns FALSE (0001ms, 0475ms total)
T3ED0 000:956 JLINK_IsHalted()  returns FALSE (0000ms, 0474ms total)
T3ED0 000:958 JLINK_IsHalted()  returns FALSE (0000ms, 0474ms total)
T3ED0 000:960 JLINK_IsHalted()  returns FALSE (0000ms, 0474ms total)
T3ED0 000:962 JLINK_IsHalted()  returns FALSE (0000ms, 0474ms total)
T3ED0 000:964 JLINK_IsHalted() -- CPU_ReadMem(2 bytes @ 0x20000000)  returns TRUE (0004ms, 0478ms total)
T3ED0 000:968 JLINK_ReadReg(R15 (PC))  returns 0x20000000 (0001ms, 0475ms total)
T3ED0 000:969 JLINK_ClrBPEx(BPHandle = 0x0000000B)  returns 0x00 (0000ms, 0475ms total)
T3ED0 000:969 JLINK_ReadReg(R0)  returns 0x00000000 (0000ms, 0475ms total)
T3ED0 000:971 JLINK_WriteReg(R0, 0x01005000)  returns 0x00 (0000ms, 0475ms total)
T3ED0 000:971 JLINK_WriteReg(R1, 0x00001000)  returns 0x00 (0000ms, 0475ms total)
T3ED0 000:971 JLINK_WriteReg(R2, 0x000000FF)  returns 0x00 (0000ms, 0475ms total)
T3ED0 000:971 JLINK_WriteReg(R3, 0x00000000)  returns 0x00 (0000ms, 0475ms total)
T3ED0 000:971 JLINK_WriteReg(R4, 0x00000000)  returns 0x00 (0000ms, 0475ms total)
T3ED0 000:971 JLINK_WriteReg(R5, 0x00000000)  returns 0x00 (0000ms, 0475ms total)
T3ED0 000:971 JLINK_WriteReg(R6, 0x00000000)  returns 0x00 (0000ms, 0475ms total)
T3ED0 000:971 JLINK_WriteReg(R7, 0x00000000)  returns 0x00 (0000ms, 0475ms total)
T3ED0 000:971 JLINK_WriteReg(R8, 0x00000000)  returns 0x00 (0000ms, 0475ms total)
T3ED0 000:971 JLINK_WriteReg(R9, 0x20000E94)  returns 0x00 (0000ms, 0475ms total)
T3ED0 000:971 JLINK_WriteReg(R10, 0x00000000)  returns 0x00 (0000ms, 0475ms total)
T3ED0 000:971 JLINK_WriteReg(R11, 0x00000000)  returns 0x00 (0000ms, 0475ms total)
T3ED0 000:971 JLINK_WriteReg(R12, 0x00000000)  returns 0x00 (0000ms, 0475ms total)
T3ED0 000:971 JLINK_WriteReg(R13 (SP), 0x20008000)  returns 0x00 (0000ms, 0475ms total)
T3ED0 000:972 JLINK_WriteReg(R14, 0x20000001)  returns 0x00 (0000ms, 0476ms total)
T3ED0 000:972 JLINK_WriteReg(R15 (PC), 0x20000020)  returns 0x00 (0000ms, 0476ms total)
T3ED0 000:972 JLINK_WriteReg(XPSR, 0x01000000)  returns 0x00 (0000ms, 0476ms total)
T3ED0 000:972 JLINK_WriteReg(MSP, 0x20008000)  returns 0x00 (0000ms, 0476ms total)
T3ED0 000:972 JLINK_WriteReg(PSP, 0x20008000)  returns 0x00 (0000ms, 0476ms total)
T3ED0 000:972 JLINK_WriteReg(CFBP, 0x00000000)  returns 0x00 (0000ms, 0476ms total)
T3ED0 000:972 JLINK_SetBPEx(Addr = 0x20000000, Type = 0xFFFFFFF2)  returns 0x0000000C (0000ms, 0476ms total)
T3ED0 000:972 JLINK_Go() -- CPU_WriteMem(4 bytes @ 0xE0002028) -- CPU_WriteMem(4 bytes @ 0xE000202C) -- CPU_WriteMem(4 bytes @ 0xE0002030) -- CPU_WriteMem(4 bytes @ 0xE0002034) -- CPU_WriteMem(4 bytes @ 0xE0002038) -- CPU_WriteMem(4 bytes @ 0xE000203C) -- CPU_ReadMem(4 bytes @ 0xE0001000) (0007ms, 0483ms total)
T3ED0 000:979 JLINK_IsHalted() -- CPU_ReadMem(2 bytes @ 0x20000000)  returns TRUE (0004ms, 0487ms total)
T3ED0 000:983 JLINK_ReadReg(R15 (PC))  returns 0x20000000 (0000ms, 0483ms total)
T3ED0 000:983 JLINK_ClrBPEx(BPHandle = 0x0000000C)  returns 0x00 (0000ms, 0483ms total)
T3ED0 000:983 JLINK_ReadReg(R0)  returns 0x00000001 (0000ms, 0483ms total)
T3ED0 000:983 JLINK_WriteReg(R0, 0x01005000)  returns 0x00 (0000ms, 0483ms total)
T3ED0 000:983 JLINK_WriteReg(R1, 0x00001000)  returns 0x00 (0000ms, 0483ms total)
T3ED0 000:983 JLINK_WriteReg(R2, 0x000000FF)  returns 0x00 (0000ms, 0483ms total)
T3ED0 000:983 JLINK_WriteReg(R3, 0x00000000)  returns 0x00 (0000ms, 0483ms total)
T3ED0 000:983 JLINK_WriteReg(R4, 0x00000000)  returns 0x00 (0000ms, 0483ms total)
T3ED0 000:983 JLINK_WriteReg(R5, 0x00000000)  returns 0x00 (0001ms, 0484ms total)
T3ED0 000:984 JLINK_WriteReg(R6, 0x00000000)  returns 0x00 (0000ms, 0484ms total)
T3ED0 000:984 JLINK_WriteReg(R7, 0x00000000)  returns 0x00 (0000ms, 0484ms total)
T3ED0 000:984 JLINK_WriteReg(R8, 0x00000000)  returns 0x00 (0000ms, 0484ms total)
T3ED0 000:984 JLINK_WriteReg(R9, 0x20000E94)  returns 0x00 (0000ms, 0484ms total)
T3ED0 000:984 JLINK_WriteReg(R10, 0x00000000)  returns 0x00 (0000ms, 0484ms total)
T3ED0 000:984 JLINK_WriteReg(R11, 0x00000000)  returns 0x00 (0000ms, 0484ms total)
T3ED0 000:984 JLINK_WriteReg(R12, 0x00000000)  returns 0x00 (0000ms, 0484ms total)
T3ED0 000:984 JLINK_WriteReg(R13 (SP), 0x20008000)  returns 0x00 (0000ms, 0484ms total)
T3ED0 000:984 JLINK_WriteReg(R14, 0x20000001)  returns 0x00 (0000ms, 0484ms total)
T3ED0 000:984 JLINK_WriteReg(R15 (PC), 0x20000094)  returns 0x00 (0000ms, 0484ms total)
T3ED0 000:984 JLINK_WriteReg(XPSR, 0x01000000)  returns 0x00 (0000ms, 0484ms total)
T3ED0 000:984 JLINK_WriteReg(MSP, 0x20008000)  returns 0x00 (0000ms, 0484ms total)
T3ED0 000:984 JLINK_WriteReg(PSP, 0x20008000)  returns 0x00 (0000ms, 0484ms total)
T3ED0 000:984 JLINK_WriteReg(CFBP, 0x00000000)  returns 0x00 (0000ms, 0484ms total)
T3ED0 000:984 JLINK_SetBPEx(Addr = 0x20000000, Type = 0xFFFFFFF2)  returns 0x0000000D (0000ms, 0484ms total)
T3ED0 000:984 JLINK_Go() -- CPU_WriteMem(4 bytes @ 0xE0002028) -- CPU_WriteMem(4 bytes @ 0xE000202C) -- CPU_WriteMem(4 bytes @ 0xE0002030) -- CPU_WriteMem(4 bytes @ 0xE0002034) -- CPU_WriteMem(4 bytes @ 0xE0002038) -- CPU_WriteMem(4 bytes @ 0xE000203C) -- CPU_ReadMem(4 bytes @ 0xE0001000) (0006ms, 0490ms total)
T3ED0 000:990 JLINK_IsHalted()  returns FALSE (0001ms, 0491ms total)
T3ED0 000:995 JLINK_IsHalted()  returns FALSE (0000ms, 0490ms total)
T3ED0 000:997 JLINK_IsHalted()  returns FALSE (0000ms, 0490ms total)
T3ED0 000:999 JLINK_IsHalted()  returns FALSE (0000ms, 0490ms total)
T3ED0 001:001 JLINK_IsHalted() -- CPU_ReadMem(2 bytes @ 0x20000000)  returns TRUE (0004ms, 0494ms total)
T3ED0 001:005 JLINK_ReadReg(R15 (PC))  returns 0x20000000 (0000ms, 0490ms total)
T3ED0 001:005 JLINK_ClrBPEx(BPHandle = 0x0000000D)  returns 0x00 (0000ms, 0490ms total)
T3ED0 001:005 JLINK_ReadReg(R0)  returns 0x00000000 (0000ms, 0490ms total)
T3ED0 001:006 JLINK_WriteReg(R0, 0x01006000)  returns 0x00 (0000ms, 0490ms total)
T3ED0 001:006 JLINK_WriteReg(R1, 0x00001000)  returns 0x00 (0000ms, 0490ms total)
T3ED0 001:006 JLINK_WriteReg(R2, 0x000000FF)  returns 0x00 (0000ms, 0490ms total)
T3ED0 001:006 JLINK_WriteReg(R3, 0x00000000)  returns 0x00 (0000ms, 0490ms total)
T3ED0 001:006 JLINK_WriteReg(R4, 0x00000000)  returns 0x00 (0000ms, 0490ms total)
T3ED0 001:006 JLINK_WriteReg(R5, 0x00000000)  returns 0x00 (0000ms, 0490ms total)
T3ED0 001:006 JLINK_WriteReg(R6, 0x00000000)  returns 0x00 (0000ms, 0490ms total)
T3ED0 001:006 JLINK_WriteReg(R7, 0x00000000)  returns 0x00 (0000ms, 0490ms total)
T3ED0 001:006 JLINK_WriteReg(R8, 0x00000000)  returns 0x00 (0001ms, 0491ms total)
T3ED0 001:007 JLINK_WriteReg(R9, 0x20000E94)  returns 0x00 (0000ms, 0491ms total)
T3ED0 001:007 JLINK_WriteReg(R10, 0x00000000)  returns 0x00 (0000ms, 0491ms total)
T3ED0 001:007 JLINK_WriteReg(R11, 0x00000000)  returns 0x00 (0000ms, 0491ms total)
T3ED0 001:007 JLINK_WriteReg(R12, 0x00000000)  returns 0x00 (0000ms, 0491ms total)
T3ED0 001:007 JLINK_WriteReg(R13 (SP), 0x20008000)  returns 0x00 (0000ms, 0491ms total)
T3ED0 001:007 JLINK_WriteReg(R14, 0x20000001)  returns 0x00 (0000ms, 0491ms total)
T3ED0 001:007 JLINK_WriteReg(R15 (PC), 0x20000020)  returns 0x00 (0000ms, 0491ms total)
T3ED0 001:007 JLINK_WriteReg(XPSR, 0x01000000)  returns 0x00 (0000ms, 0491ms total)
T3ED0 001:007 JLINK_WriteReg(MSP, 0x20008000)  returns 0x00 (0000ms, 0491ms total)
T3ED0 001:007 JLINK_WriteReg(PSP, 0x20008000)  returns 0x00 (0000ms, 0491ms total)
T3ED0 001:007 JLINK_WriteReg(CFBP, 0x00000000)  returns 0x00 (0000ms, 0491ms total)
T3ED0 001:007 JLINK_SetBPEx(Addr = 0x20000000, Type = 0xFFFFFFF2)  returns 0x0000000E (0000ms, 0491ms total)
T3ED0 001:007 JLINK_Go() -- CPU_WriteMem(4 bytes @ 0xE0002028) -- CPU_WriteMem(4 bytes @ 0xE000202C) -- CPU_WriteMem(4 bytes @ 0xE0002030) -- CPU_WriteMem(4 bytes @ 0xE0002034) -- CPU_WriteMem(4 bytes @ 0xE0002038) -- CPU_WriteMem(4 bytes @ 0xE000203C) -- CPU_ReadMem(4 bytes @ 0xE0001000) (0007ms, 0498ms total)
T3ED0 001:014 JLINK_IsHalted() -- CPU_ReadMem(2 bytes @ 0x20000000)  returns TRUE (0006ms, 0504ms total)
T3ED0 001:020 JLINK_ReadReg(R15 (PC))  returns 0x20000000 (0000ms, 0498ms total)
T3ED0 001:020 JLINK_ClrBPEx(BPHandle = 0x0000000E)  returns 0x00 (0000ms, 0498ms total)
T3ED0 001:020 JLINK_ReadReg(R0)  returns 0x00000001 (0000ms, 0498ms total)
T3ED0 001:020 JLINK_WriteReg(R0, 0x01006000)  returns 0x00 (0000ms, 0498ms total)
T3ED0 001:020 JLINK_WriteReg(R1, 0x00001000)  returns 0x00 (0000ms, 0498ms total)
T3ED0 001:020 JLINK_WriteReg(R2, 0x000000FF)  returns 0x00 (0000ms, 0498ms total)
T3ED0 001:020 JLINK_WriteReg(R3, 0x00000000)  returns 0x00 (0000ms, 0498ms total)
T3ED0 001:020 JLINK_WriteReg(R4, 0x00000000)  returns 0x00 (0000ms, 0498ms total)
T3ED0 001:020 JLINK_WriteReg(R5, 0x00000000)  returns 0x00 (0000ms, 0498ms total)
T3ED0 001:020 JLINK_WriteReg(R6, 0x00000000)  returns 0x00 (0000ms, 0498ms total)
T3ED0 001:020 JLINK_WriteReg(R7, 0x00000000)  returns 0x00 (0000ms, 0498ms total)
T3ED0 001:020 JLINK_WriteReg(R8, 0x00000000)  returns 0x00 (0000ms, 0498ms total)
T3ED0 001:020 JLINK_WriteReg(R9, 0x20000E94)  returns 0x00 (0000ms, 0498ms total)
T3ED0 001:020 JLINK_WriteReg(R10, 0x00000000)  returns 0x00 (0000ms, 0498ms total)
T3ED0 001:020 JLINK_WriteReg(R11, 0x00000000)  returns 0x00 (0000ms, 0498ms total)
T3ED0 001:020 JLINK_WriteReg(R12, 0x00000000)  returns 0x00 (0000ms, 0498ms total)
T3ED0 001:020 JLINK_WriteReg(R13 (SP), 0x20008000)  returns 0x00 (0000ms, 0498ms total)
T3ED0 001:020 JLINK_WriteReg(R14, 0x20000001)  returns 0x00 (0000ms, 0498ms total)
T3ED0 001:020 JLINK_WriteReg(R15 (PC), 0x20000094)  returns 0x00 (0000ms, 0498ms total)
T3ED0 001:020 JLINK_WriteReg(XPSR, 0x01000000)  returns 0x00 (0000ms, 0498ms total)
T3ED0 001:020 JLINK_WriteReg(MSP, 0x20008000)  returns 0x00 (0000ms, 0498ms total)
T3ED0 001:020 JLINK_WriteReg(PSP, 0x20008000)  returns 0x00 (0000ms, 0498ms total)
T3ED0 001:020 JLINK_WriteReg(CFBP, 0x00000000)  returns 0x00 (0000ms, 0498ms total)
T3ED0 001:020 JLINK_SetBPEx(Addr = 0x20000000, Type = 0xFFFFFFF2)  returns 0x0000000F (0000ms, 0498ms total)
T3ED0 001:020 JLINK_Go() -- CPU_WriteMem(4 bytes @ 0xE0002028) -- CPU_WriteMem(4 bytes @ 0xE000202C) -- CPU_WriteMem(4 bytes @ 0xE0002030) -- CPU_WriteMem(4 bytes @ 0xE0002034) -- CPU_WriteMem(4 bytes @ 0xE0002038) -- CPU_WriteMem(4 bytes @ 0xE000203C) -- CPU_ReadMem(4 bytes @ 0xE0001000) (0008ms, 0506ms total)
T3ED0 001:028 JLINK_IsHalted()  returns FALSE (0001ms, 0507ms total)
T3ED0 001:031 JLINK_IsHalted()  returns FALSE (0000ms, 0506ms total)
T3ED0 001:034 JLINK_IsHalted()  returns FALSE (0000ms, 0506ms total)
T3ED0 001:036 JLINK_IsHalted()  returns FALSE (0001ms, 0507ms total)
T3ED0 001:039 JLINK_IsHalted() -- CPU_ReadMem(2 bytes @ 0x20000000)  returns TRUE (0005ms, 0511ms total)
T3ED0 001:044 JLINK_ReadReg(R15 (PC))  returns 0x20000000 (0000ms, 0506ms total)
T3ED0 001:044 JLINK_ClrBPEx(BPHandle = 0x0000000F)  returns 0x00 (0000ms, 0506ms total)
T3ED0 001:044 JLINK_ReadReg(R0)  returns 0x00000000 (0000ms, 0506ms total)
T3ED0 001:046 JLINK_WriteReg(R0, 0x01007000)  returns 0x00 (0000ms, 0506ms total)
T3ED0 001:046 JLINK_WriteReg(R1, 0x00001000)  returns 0x00 (0000ms, 0506ms total)
T3ED0 001:046 JLINK_WriteReg(R2, 0x000000FF)  returns 0x00 (0000ms, 0506ms total)
T3ED0 001:046 JLINK_WriteReg(R3, 0x00000000)  returns 0x00 (0000ms, 0506ms total)
T3ED0 001:046 JLINK_WriteReg(R4, 0x00000000)  returns 0x00 (0000ms, 0506ms total)
T3ED0 001:046 JLINK_WriteReg(R5, 0x00000000)  returns 0x00 (0000ms, 0506ms total)
T3ED0 001:046 JLINK_WriteReg(R6, 0x00000000)  returns 0x00 (0000ms, 0506ms total)
T3ED0 001:046 JLINK_WriteReg(R7, 0x00000000)  returns 0x00 (0000ms, 0506ms total)
T3ED0 001:046 JLINK_WriteReg(R8, 0x00000000)  returns 0x00 (0000ms, 0506ms total)
T3ED0 001:046 JLINK_WriteReg(R9, 0x20000E94)  returns 0x00 (0000ms, 0506ms total)
T3ED0 001:046 JLINK_WriteReg(R10, 0x00000000)  returns 0x00 (0000ms, 0506ms total)
T3ED0 001:046 JLINK_WriteReg(R11, 0x00000000)  returns 0x00 (0000ms, 0506ms total)
T3ED0 001:046 JLINK_WriteReg(R12, 0x00000000)  returns 0x00 (0000ms, 0506ms total)
T3ED0 001:046 JLINK_WriteReg(R13 (SP), 0x20008000)  returns 0x00 (0000ms, 0506ms total)
T3ED0 001:046 JLINK_WriteReg(R14, 0x20000001)  returns 0x00 (0000ms, 0506ms total)
T3ED0 001:046 JLINK_WriteReg(R15 (PC), 0x20000020)  returns 0x00 (0000ms, 0506ms total)
T3ED0 001:046 JLINK_WriteReg(XPSR, 0x01000000)  returns 0x00 (0000ms, 0506ms total)
T3ED0 001:046 JLINK_WriteReg(MSP, 0x20008000)  returns 0x00 (0000ms, 0506ms total)
T3ED0 001:046 JLINK_WriteReg(PSP, 0x20008000)  returns 0x00 (0000ms, 0506ms total)
T3ED0 001:046 JLINK_WriteReg(CFBP, 0x00000000)  returns 0x00 (0000ms, 0506ms total)
T3ED0 001:046 JLINK_SetBPEx(Addr = 0x20000000, Type = 0xFFFFFFF2)  returns 0x00000010 (0000ms, 0506ms total)
T3ED0 001:046 JLINK_Go() -- CPU_WriteMem(4 bytes @ 0xE0002028) -- CPU_WriteMem(4 bytes @ 0xE000202C) -- CPU_WriteMem(4 bytes @ 0xE0002030) -- CPU_WriteMem(4 bytes @ 0xE0002034) -- CPU_WriteMem(4 bytes @ 0xE0002038) -- CPU_WriteMem(4 bytes @ 0xE000203C) -- CPU_ReadMem(4 bytes @ 0xE0001000) (0007ms, 0513ms total)
T3ED0 001:053 JLINK_IsHalted() -- CPU_ReadMem(2 bytes @ 0x20000000)  returns TRUE (0006ms, 0519ms total)
T3ED0 001:059 JLINK_ReadReg(R15 (PC))  returns 0x20000000 (0000ms, 0513ms total)
T3ED0 001:059 JLINK_ClrBPEx(BPHandle = 0x00000010)  returns 0x00 (0000ms, 0513ms total)
T3ED0 001:059 JLINK_ReadReg(R0)  returns 0x00000001 (0000ms, 0513ms total)
T3ED0 001:059 JLINK_WriteReg(R0, 0x01007000)  returns 0x00 (0000ms, 0513ms total)
T3ED0 001:059 JLINK_WriteReg(R1, 0x00001000)  returns 0x00 (0000ms, 0513ms total)
T3ED0 001:059 JLINK_WriteReg(R2, 0x000000FF)  returns 0x00 (0000ms, 0513ms total)
T3ED0 001:059 JLINK_WriteReg(R3, 0x00000000)  returns 0x00 (0000ms, 0513ms total)
T3ED0 001:059 JLINK_WriteReg(R4, 0x00000000)  returns 0x00 (0000ms, 0513ms total)
T3ED0 001:059 JLINK_WriteReg(R5, 0x00000000)  returns 0x00 (0000ms, 0513ms total)
T3ED0 001:059 JLINK_WriteReg(R6, 0x00000000)  returns 0x00 (0000ms, 0513ms total)
